! NanoVNA-App
! Date: 2023-01-16 13:22:35
! Start: 8MHz Stop: 12MHz Points: 401
! S-Parameter data: F S11 S21 S12 S22
# Hz S RI R 50
!     Frequency           S11_Real           S11_Imag           S21_Real           S21_Imag           S12_Real           S12_Imag           S22_Real           S22_Imag
        8000000    7.781638205e-02   -1.690748036e-01   -7.551199524e-04    8.660510182e-03    0.000000000e+00    0.000000000e+00    0.000000000e+00    0.000000000e+00
        8010000    7.708053291e-02   -1.692574471e-01   -7.836661534e-04    8.779317141e-03    0.000000000e+00    0.000000000e+00    0.000000000e+00    0.000000000e+00
        8020000    7.638551295e-02   -1.695378125e-01   -7.801711326e-04    8.696733974e-03    0.000000000e+00    0.000000000e+00    0.000000000e+00    0.000000000e+00
        8030000    7.564945519e-02   -1.695538759e-01   -8.300877525e-04    8.825691417e-03    0.000000000e+00    0.000000000e+00    0.000000000e+00    0.000000000e+00
        8040000    7.486709952e-02   -1.697331965e-01   -8.292273269e-04    8.878614753e-03    0.000000000e+00    0.000000000e+00    0.000000000e+00    0.000000000e+00
        8050000    7.425215095e-02   -1.698502153e-01   -7.323377649e-04    8.811473846e-03    0.000000000e+00    0.000000000e+00    0.000000000e+00    0.000000000e+00
        8060000    7.345803082e-02   -1.700278223e-01   -8.199235890e-04    8.853716776e-03    0.000000000e+00    0.000000000e+00    0.000000000e+00    0.000000000e+00
        8070000    7.264912874e-02   -1.702067107e-01   -8.895755163e-04    8.884726092e-03    0.000000000e+00    0.000000000e+00    0.000000000e+00    0.000000000e+00
        8080000    7.195899636e-02   -1.703463048e-01   -8.201310993e-04    8.874156512e-03    0.000000000e+00    0.000000000e+00    0.000000000e+00    0.000000000e+00
        8090000    7.103698701e-02   -1.705010384e-01   -8.368075360e-04    8.875204250e-03    0.000000000e+00    0.000000000e+00    0.000000000e+00    0.000000000e+00
        8100000    7.019727677e-02   -1.705345362e-01   -8.279136382e-04    9.002465755e-03    0.000000000e+00    0.000000000e+00    0.000000000e+00    0.000000000e+00
        8110000    6.935900450e-02   -1.707667261e-01   -7.539450889e-04    8.967186324e-03    0.000000000e+00    0.000000000e+00    0.000000000e+00    0.000000000e+00
        8120000    6.849603355e-02   -1.708684713e-01   -8.504186990e-04    8.985270746e-03    0.000000000e+00    0.000000000e+00    0.000000000e+00    0.000000000e+00
        8130000    6.745113432e-02   -1.708884388e-01   -8.473314811e-04    9.108110331e-03    0.000000000e+00    0.000000000e+00    0.000000000e+00    0.000000000e+00
        8140000    6.657601148e-02   -1.710003912e-01   -8.057038067e-04    9.061386809e-03    0.000000000e+00    0.000000000e+00    0.000000000e+00    0.000000000e+00
        8150000    6.548188627e-02   -1.710666120e-01   -8.700429462e-04    9.169582278e-03    0.000000000e+00    0.000000000e+00    0.000000000e+00    0.000000000e+00
        8160000    6.432019919e-02   -1.709984839e-01   -8.612486999e-04    9.190285578e-03    0.000000000e+00    0.000000000e+00    0.000000000e+00    0.000000000e+00
        8170000    6.298490614e-02   -1.709682941e-01   -7.908483385e-04    9.242163971e-03    0.000000000e+00    0.000000000e+00    0.000000000e+00    0.000000000e+00
        8180000    6.179060414e-02   -1.707711369e-01   -8.103724103e-04    9.326752275e-03    0.000000000e+00    0.000000000e+00    0.000000000e+00    0.000000000e+00
        8190000    6.023812667e-02   -1.702978015e-01   -8.186316700e-04    9.333185852e-03    0.000000000e+00    0.000000000e+00    0.000000000e+00    0.000000000e+00
        8200000    5.844924971e-02   -1.695025563e-01   -8.041277179e-04    9.414640255e-03    0.000000000e+00    0.000000000e+00    0.000000000e+00    0.000000000e+00
        8210000    5.677479506e-02   -1.680416018e-01   -7.746073534e-04    9.545123205e-03    0.000000000e+00    0.000000000e+00    0.000000000e+00    0.000000000e+00
        8220000    5.557828024e-02   -1.654569954e-01   -6.194509915e-04    9.658544324e-03    0.000000000e+00    0.000000000e+00    0.000000000e+00    0.000000000e+00
        8230000    5.593632534e-02   -1.619286239e-01   -4.139592056e-04    9.704727679e-03    0.000000000e+00    0.000000000e+00    0.000000000e+00    0.000000000e+00
        8240000    5.921303481e-02   -1.590470821e-01   -1.607389859e-04    9.614491835e-03    0.000000000e+00    0.000000000e+00    0.000000000e+00    0.000000000e+00
        8250000    6.349929422e-02   -1.597260833e-01   -1.817389129e-04    9.327916428e-03    0.000000000e+00    0.000000000e+00    0.000000000e+00    0.000000000e+00
        8260000    6.547407806e-02   -1.626778543e-01   -1.181056796e-04    9.185330942e-03    0.000000000e+00    0.000000000e+00    0.000000000e+00    0.000000000e+00
        8270000    6.557219476e-02   -1.656861454e-01   -2.898816019e-04    9.100032039e-03    0.000000000e+00    0.000000000e+00    0.000000000e+00    0.000000000e+00
        8280000    6.463775784e-02   -1.677055508e-01   -4.087272100e-04    9.044539183e-03    0.000000000e+00    0.000000000e+00    0.000000000e+00    0.000000000e+00
        8290000    6.342848390e-02   -1.691600233e-01   -5.069760373e-04    9.101511911e-03    0.000000000e+00    0.000000000e+00    0.000000000e+00    0.000000000e+00
        8300000    6.216504425e-02   -1.702150404e-01   -5.050764303e-04    9.067312814e-03    0.000000000e+00    0.000000000e+00    0.000000000e+00    0.000000000e+00
        8310000    6.095024198e-02   -1.709882468e-01   -5.371745792e-04    9.182551876e-03    0.000000000e+00    0.000000000e+00    0.000000000e+00    0.000000000e+00
        8320000    5.972001702e-02   -1.714851111e-01   -6.196835893e-04    9.126107208e-03    0.000000000e+00    0.000000000e+00    0.000000000e+00    0.000000000e+00
        8330000    5.859466270e-02   -1.720345616e-01   -6.485802005e-04    9.181613103e-03    0.000000000e+00    0.000000000e+00    0.000000000e+00    0.000000000e+00
        8340000    5.738637224e-02   -1.723925024e-01   -6.755493814e-04    9.225187823e-03    0.000000000e+00    0.000000000e+00    0.000000000e+00    0.000000000e+00
        8350000    5.623531342e-02   -1.727715582e-01   -7.038993645e-04    9.279617108e-03    0.000000000e+00    0.000000000e+00    0.000000000e+00    0.000000000e+00
        8360000    5.510771647e-02   -1.730801463e-01   -6.351543125e-04    9.309292771e-03    0.000000000e+00    0.000000000e+00    0.000000000e+00    0.000000000e+00
        8370000    5.406523123e-02   -1.732738465e-01   -6.583719514e-04    9.214242920e-03    0.000000000e+00    0.000000000e+00    0.000000000e+00    0.000000000e+00
        8380000    5.300844833e-02   -1.735346615e-01   -6.199916243e-04    9.319314733e-03    0.000000000e+00    0.000000000e+00    0.000000000e+00    0.000000000e+00
        8390000    5.188910291e-02   -1.738096625e-01   -6.764917634e-04    9.338308126e-03    0.000000000e+00    0.000000000e+00    0.000000000e+00    0.000000000e+00
        8400000    5.085376278e-02   -1.740398258e-01   -7.008462562e-04    9.330227971e-03    0.000000000e+00    0.000000000e+00    0.000000000e+00    0.000000000e+00
        8410000    4.977348447e-02   -1.742106676e-01   -7.603604463e-04    9.417793714e-03    0.000000000e+00    0.000000000e+00    0.000000000e+00    0.000000000e+00
        8420000    4.871884733e-02   -1.743727773e-01   -7.310594665e-04    9.423853830e-03    0.000000000e+00    0.000000000e+00    0.000000000e+00    0.000000000e+00
        8430000    4.761709645e-02   -1.745236367e-01   -7.546655252e-04    9.459960274e-03    0.000000000e+00    0.000000000e+00    0.000000000e+00    0.000000000e+00
        8440000    4.650251567e-02   -1.746339053e-01   -7.052599103e-04    9.480675682e-03    0.000000000e+00    0.000000000e+00    0.000000000e+00    0.000000000e+00
        8450000    4.547883570e-02   -1.748107970e-01   -7.137460052e-04    9.536777623e-03    0.000000000e+00    0.000000000e+00    0.000000000e+00    0.000000000e+00
        8460000    4.442341998e-02   -1.750746667e-01   -7.322129095e-04    9.515278973e-03    0.000000000e+00    0.000000000e+00    0.000000000e+00    0.000000000e+00
        8470000    4.336695373e-02   -1.752456278e-01   -7.376842550e-04    9.578058496e-03    0.000000000e+00    0.000000000e+00    0.000000000e+00    0.000000000e+00
        8480000    4.222027957e-02   -1.753405184e-01   -7.693322259e-04    9.617003612e-03    0.000000000e+00    0.000000000e+00    0.000000000e+00    0.000000000e+00
        8490000    4.114686325e-02   -1.754334271e-01   -7.785183843e-04    9.694176726e-03    0.000000000e+00    0.000000000e+00    0.000000000e+00    0.000000000e+00
        8500000    3.992842883e-02   -1.755846292e-01   -7.356597926e-04    9.639658965e-03    0.000000000e+00    0.000000000e+00    0.000000000e+00    0.000000000e+00
        8510000    3.879996389e-02   -1.756728142e-01   -7.609785534e-04    9.700175375e-03    0.000000000e+00    0.000000000e+00    0.000000000e+00    0.000000000e+00
        8520000    3.771928325e-02   -1.758446693e-01   -7.082179072e-04    9.680923074e-03    0.000000000e+00    0.000000000e+00    0.000000000e+00    0.000000000e+00
        8530000    3.649823740e-02   -1.759225726e-01   -8.276623557e-04    9.724168107e-03    0.000000000e+00    0.000000000e+00    0.000000000e+00    0.000000000e+00
        8540000    3.521205485e-02   -1.759748459e-01   -7.349451771e-04    9.757623076e-03    0.000000000e+00    0.000000000e+00    0.000000000e+00    0.000000000e+00
        8550000    3.413712978e-02   -1.761742830e-01   -7.824213244e-04    9.787134826e-03    0.000000000e+00    0.000000000e+00    0.000000000e+00    0.000000000e+00
        8560000    3.286174685e-02   -1.762883067e-01   -7.039566408e-04    9.940196760e-03    0.000000000e+00    0.000000000e+00    0.000000000e+00    0.000000000e+00
        8570000    3.167153522e-02   -1.763500869e-01   -7.413990679e-04    9.886927903e-03    0.000000000e+00    0.000000000e+00    0.000000000e+00    0.000000000e+00
        8580000    3.036852926e-02   -1.765333563e-01   -7.617014926e-04    9.878047742e-03    0.000000000e+00    0.000000000e+00    0.000000000e+00    0.000000000e+00
        8590000    2.908709459e-02   -1.765194237e-01   -7.070748252e-04    9.946363047e-03    0.000000000e+00    0.000000000e+00    0.000000000e+00    0.000000000e+00
        8600000    2.777833864e-02   -1.765874475e-01   -7.996762288e-04    9.970891289e-03    0.000000000e+00    0.000000000e+00    0.000000000e+00    0.000000000e+00
        8610000    2.655074373e-02   -1.766753793e-01   -7.504464593e-04    1.000019908e-02    0.000000000e+00    0.000000000e+00    0.000000000e+00    0.000000000e+00
        8620000    2.522783726e-02   -1.768560857e-01   -8.184855105e-04    9.967918508e-03    0.000000000e+00    0.000000000e+00    0.000000000e+00    0.000000000e+00
        8630000    2.382249758e-02   -1.768854856e-01   -8.193831309e-04    1.007838733e-02    0.000000000e+00    0.000000000e+00    0.000000000e+00    0.000000000e+00
        8640000    2.246602811e-02   -1.768876910e-01   -7.560723461e-04    1.010906603e-02    0.000000000e+00    0.000000000e+00    0.000000000e+00    0.000000000e+00
        8650000    2.116366103e-02   -1.769155711e-01   -8.273029234e-04    1.011646912e-02    0.000000000e+00    0.000000000e+00    0.000000000e+00    0.000000000e+00
        8660000    1.960351132e-02   -1.769742072e-01   -8.062386769e-04    1.013226435e-02    0.000000000e+00    0.000000000e+00    0.000000000e+00    0.000000000e+00
        8670000    1.816084981e-02   -1.770261377e-01   -8.002555114e-04    1.016965415e-02    0.000000000e+00    0.000000000e+00    0.000000000e+00    0.000000000e+00
        8680000    1.671937294e-02   -1.771101356e-01   -7.402294432e-04    1.024050266e-02    0.000000000e+00    0.000000000e+00    0.000000000e+00    0.000000000e+00
        8690000    1.526352856e-02   -1.770975143e-01   -7.896812167e-04    1.025417354e-02    0.000000000e+00    0.000000000e+00    0.000000000e+00    0.000000000e+00
        8700000    1.373435277e-02   -1.770087034e-01   -7.662408170e-04    1.025118958e-02    0.000000000e+00    0.000000000e+00    0.000000000e+00    0.000000000e+00
        8710000    1.220778283e-02   -1.770060807e-01   -7.348883664e-04    1.029379480e-02    0.000000000e+00    0.000000000e+00    0.000000000e+00    0.000000000e+00
        8720000    1.057159621e-02   -1.769654751e-01   -8.009782759e-04    1.034706086e-02    0.000000000e+00    0.000000000e+00    0.000000000e+00    0.000000000e+00
        8730000    9.015425108e-03   -1.770955771e-01   -8.063047426e-04    1.033692528e-02    0.000000000e+00    0.000000000e+00    0.000000000e+00    0.000000000e+00
        8740000    7.380388211e-03   -1.770109385e-01   -8.114214288e-04    1.034624502e-02    0.000000000e+00    0.000000000e+00    0.000000000e+00    0.000000000e+00
        8750000    5.714370869e-03   -1.769179255e-01   -7.138525834e-04    1.039004792e-02    0.000000000e+00    0.000000000e+00    0.000000000e+00    0.000000000e+00
        8760000    3.988579847e-03   -1.769147962e-01   -7.231532945e-04    1.041933708e-02    0.000000000e+00    0.000000000e+00    0.000000000e+00    0.000000000e+00
        8770000    2.215882530e-03   -1.768016517e-01   -7.655814406e-04    1.055706199e-02    0.000000000e+00    0.000000000e+00    0.000000000e+00    0.000000000e+00
        8780000    4.489756830e-04   -1.767064333e-01   -7.966249250e-04    1.051120367e-02    0.000000000e+00    0.000000000e+00    0.000000000e+00    0.000000000e+00
        8790000   -1.433312078e-03   -1.766775995e-01   -8.041601395e-04    1.053067669e-02    0.000000000e+00    0.000000000e+00    0.000000000e+00    0.000000000e+00
        8800000   -3.227434354e-03   -1.764800996e-01   -8.075764636e-04    1.064947620e-02    0.000000000e+00    0.000000000e+00    0.000000000e+00    0.000000000e+00
        8810000   -5.094642285e-03   -1.763918698e-01   -7.922059740e-04    1.066436619e-02    0.000000000e+00    0.000000000e+00    0.000000000e+00    0.000000000e+00
        8820000   -7.068714593e-03   -1.762657166e-01   -8.414240438e-04    1.074443758e-02    0.000000000e+00    0.000000000e+00    0.000000000e+00    0.000000000e+00
        8830000   -9.020940401e-03   -1.761085093e-01   -7.799858577e-04    1.072962023e-02    0.000000000e+00    0.000000000e+00    0.000000000e+00    0.000000000e+00
        8840000   -1.099563017e-02   -1.759013534e-01   -7.893149741e-04    1.080309227e-02    0.000000000e+00    0.000000000e+00    0.000000000e+00    0.000000000e+00
        8850000   -1.315301470e-02   -1.756517291e-01   -7.889445405e-04    1.082019322e-02    0.000000000e+00    0.000000000e+00    0.000000000e+00    0.000000000e+00
        8860000   -1.518687792e-02   -1.754668206e-01   -7.393319975e-04    1.080092881e-02    0.000000000e+00    0.000000000e+00    0.000000000e+00    0.000000000e+00
        8870000   -1.738711260e-02   -1.751296073e-01   -7.059559575e-04    1.092681941e-02    0.000000000e+00    0.000000000e+00    0.000000000e+00    0.000000000e+00
        8880000   -1.960292272e-02   -1.748764664e-01   -7.302822196e-04    1.088448428e-02    0.000000000e+00    0.000000000e+00    0.000000000e+00    0.000000000e+00
        8890000   -2.184270695e-02   -1.745175421e-01   -7.490859134e-04    1.094850153e-02    0.000000000e+00    0.000000000e+00    0.000000000e+00    0.000000000e+00
        8900000   -2.418278903e-02   -1.741870046e-01   -7.016982418e-04    1.102650445e-02    0.000000000e+00    0.000000000e+00    0.000000000e+00    0.000000000e+00
        8910000   -2.657365985e-02   -1.738177836e-01   -7.692882209e-04    1.103135291e-02    0.000000000e+00    0.000000000e+00    0.000000000e+00    0.000000000e+00
        8920000   -2.897222713e-02   -1.734041870e-01   -7.316806586e-04    1.111888885e-02    0.000000000e+00    0.000000000e+00    0.000000000e+00    0.000000000e+00
        8930000   -3.141039982e-02   -1.728572547e-01   -6.700161030e-04    1.113790274e-02    0.000000000e+00    0.000000000e+00    0.000000000e+00    0.000000000e+00
        8940000   -3.399444371e-02   -1.722868830e-01   -6.831581704e-04    1.114917547e-02    0.000000000e+00    0.000000000e+00    0.000000000e+00    0.000000000e+00
        8950000   -3.660025448e-02   -1.717561334e-01   -8.338624611e-04    1.127521321e-02    0.000000000e+00    0.000000000e+00    0.000000000e+00    0.000000000e+00
        8960000   -3.915212303e-02   -1.709606946e-01   -7.798126317e-04    1.128258370e-02    0.000000000e+00    0.000000000e+00    0.000000000e+00    0.000000000e+00
        8970000   -4.173611850e-02   -1.704523712e-01   -8.481931873e-04    1.137264818e-02    0.000000000e+00    0.000000000e+00    0.000000000e+00    0.000000000e+00
        8980000   -4.427428916e-02   -1.699177921e-01   -8.784224046e-04    1.144886762e-02    0.000000000e+00    0.000000000e+00    0.000000000e+00    0.000000000e+00
        8990000   -4.720756039e-02   -1.693749875e-01   -8.530949708e-04    1.162652578e-02    0.000000000e+00    0.000000000e+00    0.000000000e+00    0.000000000e+00
        9000000   -5.019335449e-02   -1.687654406e-01   -7.635434740e-04    1.170728263e-02    0.000000000e+00    0.000000000e+00    0.000000000e+00    0.000000000e+00
        9010000   -5.337442830e-02   -1.680247635e-01   -7.649817271e-04    1.176237315e-02    0.000000000e+00    0.000000000e+00    0.000000000e+00    0.000000000e+00
        9020000   -5.664273351e-02   -1.670444161e-01   -7.473115111e-04    1.181649882e-02    0.000000000e+00    0.000000000e+00    0.000000000e+00    0.000000000e+00
        9030000   -5.988862365e-02   -1.660885364e-01   -6.236277404e-04    1.196157094e-02    0.000000000e+00    0.000000000e+00    0.000000000e+00    0.000000000e+00
        9040000   -6.324303895e-02   -1.650909334e-01   -7.467869436e-04    1.194836199e-02    0.000000000e+00    0.000000000e+00    0.000000000e+00    0.000000000e+00
        9050000   -6.666677445e-02   -1.639081538e-01   -5.889285821e-04    1.197866630e-02    0.000000000e+00    0.000000000e+00    0.000000000e+00    0.000000000e+00
        9060000   -7.021454722e-02   -1.626679748e-01   -5.411043530e-04    1.207992528e-02    0.000000000e+00    0.000000000e+00    0.000000000e+00    0.000000000e+00
        9070000   -7.378572971e-02   -1.612468958e-01   -6.128627574e-04    1.208986994e-02    0.000000000e+00    0.000000000e+00    0.000000000e+00    0.000000000e+00
        9080000   -7.747716457e-02   -1.598670185e-01   -5.587648484e-04    1.216625515e-02    0.000000000e+00    0.000000000e+00    0.000000000e+00    0.000000000e+00
        9090000   -8.129490167e-02   -1.582676619e-01   -5.554811796e-04    1.225372963e-02    0.000000000e+00    0.000000000e+00    0.000000000e+00    0.000000000e+00
        9100000   -8.521611243e-02   -1.565712094e-01   -4.765166959e-04    1.241653785e-02    0.000000000e+00    0.000000000e+00    0.000000000e+00    0.000000000e+00
        9110000   -8.919702470e-02   -1.547733247e-01   -4.484319652e-04    1.238321047e-02    0.000000000e+00    0.000000000e+00    0.000000000e+00    0.000000000e+00
        9120000   -9.332124889e-02   -1.526198238e-01   -4.100909573e-04    1.252721250e-02    0.000000000e+00    0.000000000e+00    0.000000000e+00    0.000000000e+00
        9130000   -9.755613655e-02   -1.506386846e-01   -4.101721570e-04    1.261088904e-02    0.000000000e+00    0.000000000e+00    0.000000000e+00    0.000000000e+00
        9140000   -1.019738838e-01   -1.483534873e-01   -3.748845775e-04    1.265539415e-02    0.000000000e+00    0.000000000e+00    0.000000000e+00    0.000000000e+00
        9150000   -1.064325422e-01   -1.457433850e-01   -3.497524303e-04    1.276137400e-02    0.000000000e+00    0.000000000e+00    0.000000000e+00    0.000000000e+00
        9160000   -1.111016944e-01   -1.430254430e-01   -2.489445615e-04    1.288183033e-02    0.000000000e+00    0.000000000e+00    0.000000000e+00    0.000000000e+00
