Circuit: * C:\Users\Dougl\OneDrive\Ham Radio\KiCad Files\W7ZOI Spectrum Analyzer\timebase\timebase\timebase-spice\TimeBase.asc

WARNING: Less than two connections to node OUT.  This node is used by R416.
Direct Newton iteration failed to find .op point.  (Use ".option noopiter" to skip.)
Starting Gmin stepping
Gmin = 10
Gmin = 1.07374
Gmin = 0.115292
Gmin = 0.0123794
Gmin = 0.00132923
Gmin = 0.000142725
Gmin = 1.5325e-005
Gmin = 1.6455e-006
Gmin = 1.76685e-007
Gmin = 1.89714e-008
Gmin = 2.03704e-009
Gmin = 2.18725e-010
vernier = 0.5
vernier = 0.25
vernier = 0.125
vernier = 0.0625
vernier = 0.03125
Gmin = 8.95898e-011
vernier = 0.015625
vernier = 0.0078125
vernier = 0.00390625
vernier = 0.00195313
vernier = 0.000976563
vernier = 0.000488281
Gmin = 0
Gmin stepping failed

Starting source stepping with srcstepmethod=0
Source Step = 3.0303%
Source Step = 25.7576%
Source Step = 28.5985%
Source Step = 30.4924%
Source Step = 32.3864%
Source Step = 34.2803%
Source Step = 36.1742%
vernier = 0.09375
Source Step = 38.6364%
Source Step = 41.4773%
Source Step = 44.3182%
Source Step = 47.1591%
Source Step = 50%
vernier = 0.140625
Source Step = 53.5511%
Source Step = 57.8125%
Source Step = 62.0739%
Source Step = 66.3352%
Source Step = 70.5966%
vernier = 0.210938
Source Step = 75.7102%
Source Step = 82.1023%
Source Step = 88.4943%
Source Step = 89.1934%
Source Step = 89.2933%
Source Step = 89.3932%
Source Step = 89.4931%
Source Step = 89.593%
vernier = 0.00494385
Source Step = 89.7128%
Source Step = 89.8626%
Source Step = 90.0124%
Source Step = 90.1622%
Source Step = 90.3121%
vernier = 0.00741577
Source Step = 90.4843%
Source Step = 90.7091%
Source Step = 90.9338%
Source Step = 91.1585%
Source Step = 91.3832%
vernier = 0.0111237
Source Step = 91.6304%
Source Step = 91.9675%
Source Step = 92.3046%
Source Step = 92.6417%
Source Step = 92.9787%
vernier = 0.0166855
Source Step = 93.3327%
Source Step = 93.8383%
Source Step = 94.3439%
Source Step = 94.8495%
Source Step = 95.3552%
Source Step = 95.8608%
vernier = 0.0250282
Source Step = 96.6192%
Source Step = 97.3776%
Source Step = 98.1361%
Source Step = 98.8945%
Source Step = 99.6529%
vernier = 0.0375423
Source stepping succeeded in finding the operating point.

Semiconductor Device Operating Points:
                        --- Diodes ---
Name:   d:u403b:2   d:u403b:4   d:u403b:3   d:u403b:6   d:u403b:1
Model:  u403b:iq     u403b:x     u403b:x     u403b:y     u403b:y
Id:      4.67e-03   -2.61e-10   -4.01e-11   -3.11e-13    3.11e-13
Vd:      2.98e+01   -2.58e+01   -3.97e+00   -2.83e-01    2.83e-01
Req:     5.00e-04    1.00e-11    1.00e-11    1.00e-12    1.00e-12
CAP:     0.00e+00    0.00e+00    0.00e+00    0.00e+00    0.00e+00

Name:   d:u403a:2   d:u403a:4   d:u403a:3   d:u403a:6   d:u403a:1
Model:  u403a:iq     u403a:x     u403a:x     u403a:y     u403a:y
Id:      2.00e-10   -5.18e-11    4.33e-04   -3.47e-12    4.92e-04
Vd:      2.00e+00   -5.13e+00    3.13e+00   -3.16e+00    3.16e+00
Req:     1.00e-10    1.00e-11    1.00e-04    1.00e-12    2.00e-03
CAP:     0.00e+00    0.00e+00    0.00e+00    0.00e+00    0.00e+00

Name:    d:u8:2      d:u8:4      d:u8:3      d:u8:6      d:u8:1
Model:    u8:iq       u8:x        u8:x        u8:y        u8:y
Id:      4.67e-03   -1.38e-10   -1.65e-10    4.12e-14   -4.12e-14
Vd:      3.00e+01   -1.36e+01   -1.64e+01    3.75e-02   -3.75e-02
Req:     5.00e-04    1.00e-11    1.00e-11    1.00e-12    1.00e-12
CAP:     0.00e+00    0.00e+00    0.00e+00    0.00e+00    0.00e+00

Name:    d:u7:2      d:u7:4      d:u7:3      d:u7:6      d:u7:1
Model:    u7:iq       u7:x        u7:x        u7:y        u7:y
Id:      4.66e-03   -1.47e-10   -1.36e-10   -3.80e-14    3.80e-14
Vd:      2.80e+01   -1.45e+01   -1.35e+01   -3.46e-02    3.46e-02
Req:     5.00e-04    1.00e-11    1.00e-11    1.00e-12    1.00e-12
CAP:     0.00e+00    0.00e+00    0.00e+00    0.00e+00    0.00e+00

Name:    d:u6:2      d:u6:4      d:u6:3      d:u6:6      d:u6:1
Model:    u6:iq       u6:x        u6:x        u6:y        u6:y
Id:      4.67e-03   -1.61e-10   -1.42e-10   -1.69e-13    1.69e-13
Vd:      3.00e+01   -1.60e+01   -1.40e+01   -1.53e-01    1.53e-01
Req:     5.00e-04    1.00e-11    1.00e-11    1.00e-12    1.00e-12
CAP:     0.00e+00    0.00e+00    0.00e+00    0.00e+00    0.00e+00

Name:    d:u5:2      d:u5:4      d:u5:3      d:u5:6      d:u5:1
Model:    u5:iq       u5:x        u5:x        u5:y        u5:y
Id:      4.66e-03   -1.36e-10   -1.48e-10    2.08e-13   -2.08e-13
Vd:      2.80e+01   -1.34e+01   -1.46e+01    1.89e-01   -1.89e-01
Req:     5.00e-04    1.00e-11    1.00e-11    1.00e-12    1.00e-12
CAP:     0.00e+00    0.00e+00    0.00e+00    0.00e+00    0.00e+00

Name:     d406        d403        d407        d408        d405
Model:      d           d        1n4148      1n4148      1n4148
Id:     -1.50e-09   -1.50e-09   -3.58e-09   -3.58e-09   -4.10e-09
Vd:     -1.50e+01   -1.50e+01   -1.06e+01   -1.06e+01   -1.58e+01
Req:     1.00e+10    1.00e+10    1.00e+10    1.00e+10    1.00e+10
CAP:     0.00e+00    0.00e+00    1.50e-12    1.50e-12    1.29e-12

Name:     d404        d402        d401
Model:   1n4148      1n4148      1n4148
Id:     -3.94e-09    3.92e-05    1.50e-04
Vd:     -1.42e+01    4.37e-01    4.98e-01
Req:     1.00e+10    1.16e+03    3.02e+02
CAP:     1.35e-12    2.23e-11    7.16e-11

                        --- VDMOSFET Transistors ---
Name:       m:u403b:2   m:u403b:1   m:u403a:2   m:u403a:1    m:u8:2
Model:       u403b:p     u403b:n     u403a:p     u403a:n      u8:p
Id:         -3.77e-05    7.46e-04   -1.97e-10    4.33e-04   -2.72e-04
Vgs:         2.83e-01    2.83e-01    3.16e+00    3.16e+00   -3.75e-02
Vds:        -2.55e+01    4.25e+00   -1.97e+00    2.55e-02   -1.37e+01
Vth:         2.50e-01   -2.50e-01    2.50e-01   -2.50e-01    2.50e-01
Gm:          2.82e-04    2.55e-03    2.39e-16    1.28e-04    1.33e-03
Gds:         0.00e+00    0.00e+00    0.00e+00    1.69e-02    0.00e+00
Cgs:         0.00e+00    0.00e+00    0.00e+00    0.00e+00    0.00e+00
Cgd:         0.00e+00    0.00e+00    0.00e+00    0.00e+00    0.00e+00
Cbody:       0.00e+00    0.00e+00    0.00e+00    0.00e+00    0.00e+00

Name:        m:u8:1      m:u7:2      m:u7:1      m:u6:2      m:u6:1
Model:        u8:n        u7:p        u7:n        u6:p        u6:n
Id:          1.85e-04   -1.88e-04    2.69e-04   -9.29e-05    4.59e-04
Vgs:        -3.75e-02    3.46e-02    3.46e-02    1.53e-01    1.53e-01
Vds:         1.63e+01   -1.45e+01    1.35e+01   -1.58e+01    1.42e+01
Vth:        -2.50e-01    2.50e-01   -2.50e-01    2.50e-01   -2.50e-01
Gm:          1.01e-03    1.02e-03    1.32e-03    5.96e-04    1.89e-03
Gds:         0.00e+00    0.00e+00    0.00e+00    0.00e+00    0.00e+00
Cgs:         0.00e+00    0.00e+00    0.00e+00    0.00e+00    0.00e+00
Cgd:         0.00e+00    0.00e+00    0.00e+00    0.00e+00    0.00e+00
Cbody:       0.00e+00    0.00e+00    0.00e+00    0.00e+00    0.00e+00

Name:        m:u5:2      m:u5:1
Model:        u5:p        u5:n
Id:         -5.29e-04    7.36e-05
Vgs:        -1.89e-01   -1.89e-01
Vds:        -1.36e+01    1.44e+01
Vth:         2.50e-01   -2.50e-01
Gm:          2.07e-03    4.94e-04
Gds:         0.00e+00    0.00e+00
Cgs:         0.00e+00    0.00e+00
Cgd:         0.00e+00    0.00e+00
Cbody:       0.00e+00    0.00e+00



Date: Sun Jul 24 11:10:57 2022
Total elapsed time: 0.417 seconds.

tnom = 27
temp = 27
method = trap
totiter = 4190
traniter = 0
tranpoints = 0
accept = 0
rejected = 0
matrix size = 59
fillins = 129
solver = Normal
Thread vector: 19.8/9.5[5] 0.0/0.0[0] 2.6/2.7[1] 0.3/1.1[1]  2592/500
Matrix Compiler1: 14.09 KB object code size
Matrix Compiler2: 8.35 KB object code size  0.6/1.0/[0.3]

