Circuit: * C:\Users\Dougl\OneDrive\Ham Radio\LT Spice Files\W7ZOI Spectrum Analyzer\TimeBase.asc

WARNING: Less than two connections to node OUT.  This node is used by R416.
Direct Newton iteration failed to find .op point.  (Use ".option noopiter" to skip.)
Starting Gmin stepping
Gmin = 10
Gmin = 1.07374
Gmin = 0.115292
Gmin = 0.0123794
Gmin = 0.00132923
Gmin = 0.000142725
Gmin = 1.5325e-005
Gmin = 1.6455e-006
Gmin = 1.76685e-007
Gmin = 1.89714e-008
Gmin = 2.03704e-009
Gmin = 2.18725e-010
Gmin = 2.34854e-011
vernier = 0.5
vernier = 0.25
vernier = 0.125
vernier = 0.0625
Gmin = 9.61963e-012
vernier = 0.03125
vernier = 0.015625
vernier = 0.0078125
vernier = 0.00390625
vernier = 0.00195313
vernier = 0.000976563
vernier = 0.000488281
Gmin = 0
Gmin stepping failed

Starting source stepping with srcstepmethod=0
Source Step = 3.0303%
Source Step = 23.4848%
Source Step = 26.5625%
Source Step = 27.036%
Source Step = 27.3556%
Source Step = 27.474%
Source Step = 27.5923%
Source Step = 27.7107%
Source Step = 27.8291%
vernier = 0.00585938
Source Step = 27.9593%
Source Step = 28.1368%
Source Step = 28.3144%
Source Step = 28.492%
Source Step = 28.6695%
vernier = 0.00878906
Source Step = 28.8559%
Source Step = 29.1223%
Source Step = 29.3886%
Source Step = 29.6549%
Source Step = 29.9213%
Source Step = 30.1876%
vernier = 0.0131836
Source Step = 30.5871%
Source Step = 30.9866%
Source Step = 31.3861%
Source Step = 31.7856%
Source Step = 32.1851%
vernier = 0.0197754
Source Step = 32.7644%
Source Step = 33.3637%
Source Step = 33.9629%
Source Step = 34.5622%
Source Step = 35.1614%
vernier = 0.0296631
Source Step = 36.0004%
Source Step = 36.8993%
Source Step = 37.7981%
Source Step = 38.697%
Source Step = 39.5959%
vernier = 0.0444946
Source Step = 40.8094%
Source Step = 42.1577%
Source Step = 43.506%
Source Step = 44.8544%
Source Step = 46.2027%
vernier = 0.0667419
Source Step = 47.9555%
Source Step = 49.978%
Source Step = 52.0005%
Source Step = 54.023%
Source Step = 56.0454%
vernier = 0.100113
Source Step = 58.5735%
Source Step = 61.6073%
Source Step = 64.641%
Source Step = 67.6747%
Source Step = 70.7084%
vernier = 0.150169
Source Step = 74.3489%
Source Step = 78.8995%
Source Step = 83.4501%
Source Step = 88.0007%
vernier = 0.0375423
Source Step = 87.6025%
Source Step = 87.6736%
Source Step = 87.7447%
Source Step = 87.8158%
Source Step = 87.8869%
vernier = 0.00351959
Source Step = 87.9687%
Source Step = 88.0753%
Source Step = 88.182%
Source Step = 88.2886%
Source Step = 88.3953%
vernier = 0.00527939
Source Step = 88.5126%
Source Step = 88.6726%
Source Step = 88.8326%
Source Step = 88.9926%
Source Step = 89.1525%
vernier = 0.00791909
Source Step = 89.3205%
Source Step = 89.5605%
Source Step = 89.8005%
Source Step = 90.0404%
vernier = 0.00197977
Source Step = 90.0764%
Source Step = 90.1364%
Source Step = 90.1964%
Source Step = 90.2564%
Source Step = 90.3164%
Source Step = 90.3764%
Source Step = 90.4364%
Source Step = 90.4964%
Source Step = 90.5564%
Source Step = 90.6164%
Source Step = 90.6764%
Source Step = 90.7364%
Source Step = 90.7964%
Source Step = 90.8563%
Source Step = 90.9163%
vernier = 0.00296966
Source Step = 90.9943%
Source Step = 91.0843%
Source Step = 91.1743%
Source Step = 91.2643%
Source Step = 91.3543%
vernier = 0.00445449
Source Step = 91.4668%
Source Step = 91.6018%
Source Step = 91.7367%
Source Step = 91.8717%
Source Step = 92.0067%
vernier = 0.00668173
Source Step = 92.1687%
Source Step = 92.3712%
Source Step = 92.5736%
Source Step = 92.7761%
Source Step = 92.9786%
vernier = 0.0100226
Source Step = 93.2114%
Source Step = 93.5152%
Source Step = 93.8189%
Source Step = 94.1226%
Source Step = 94.4263%
vernier = 0.0150339
Source Step = 94.7604%
Source Step = 95.216%
Source Step = 95.6715%
Source Step = 96.1271%
Source Step = 96.5827%
vernier = 0.0225508
Source Step = 97.061%
Source Step = 97.7444%
Source Step = 98.4278%
Source Step = 99.1111%
Source Step = 99.7945%
Source stepping succeeded in finding the operating point.

Semiconductor Device Operating Points:
                        --- Diodes ---
Name:   d:u403b:2   d:u403b:4   d:u403b:3   d:u403b:6   d:u403b:1
Model:  u403b:iq     u403b:x     u403b:x     u403b:y     u403b:y
Id:      4.67e-03   -2.58e-10   -3.98e-11   -2.83e-13    2.83e-13
Vd:      2.98e+01   -2.58e+01   -3.98e+00   -2.83e-01    2.83e-01
Req:     5.00e-04    1.00e-11    1.00e-11    1.00e-12    1.00e-12
CAP:     0.00e+00    0.00e+00    0.00e+00    0.00e+00    0.00e+00

Name:   d:u403a:2   d:u403a:4   d:u403a:3   d:u403a:6   d:u403a:1
Model:  u403a:iq     u403a:x     u403a:x     u403a:y     u403a:y
Id:      5.91e-10   -5.13e-11    4.33e-04   -3.16e-12    4.93e-04
Vd:      2.00e+00   -5.13e+00    3.13e+00   -3.16e+00    3.16e+00
Req:     5.00e-04    1.00e-11    1.00e-04    1.00e-12    2.00e-03
CAP:     0.00e+00    0.00e+00    0.00e+00    0.00e+00    0.00e+00

Name:    d:u8:2      d:u8:4      d:u8:3      d:u8:6      d:u8:1
Model:    u8:iq       u8:x        u8:x        u8:y        u8:y
Id:      4.67e-03   -1.36e-10   -1.64e-10    3.75e-14   -3.75e-14
Vd:      3.00e+01   -1.36e+01   -1.64e+01    3.75e-02   -3.75e-02
Req:     5.00e-04    1.00e-11    1.00e-11    1.00e-12    1.00e-12
CAP:     0.00e+00    0.00e+00    0.00e+00    0.00e+00    0.00e+00

Name:    d:u7:2      d:u7:4      d:u7:3      d:u7:6      d:u7:1
Model:    u7:iq       u7:x        u7:x        u7:y        u7:y
Id:      4.66e-03   -1.45e-10   -1.35e-10   -3.46e-14    3.46e-14
Vd:      2.80e+01   -1.45e+01   -1.35e+01   -3.46e-02    3.46e-02
Req:     5.00e-04    1.00e-11    1.00e-11    1.00e-12    1.00e-12
CAP:     0.00e+00    0.00e+00    0.00e+00    0.00e+00    0.00e+00

Name:    d:u6:2      d:u6:4      d:u6:3      d:u6:6      d:u6:1
Model:    u6:iq       u6:x        u6:x        u6:y        u6:y
Id:      4.67e-03   -1.60e-10   -1.40e-10   -1.53e-13    1.53e-13
Vd:      3.00e+01   -1.60e+01   -1.40e+01   -1.53e-01    1.53e-01
Req:     5.00e-04    1.00e-11    1.00e-11    1.00e-12    1.00e-12
CAP:     0.00e+00    0.00e+00    0.00e+00    0.00e+00    0.00e+00

Name:    d:u5:2      d:u5:4      d:u5:3      d:u5:6      d:u5:1
Model:    u5:iq       u5:x        u5:x        u5:y        u5:y
Id:      4.66e-03   -1.34e-10   -1.46e-10    1.89e-13   -1.89e-13
Vd:      2.80e+01   -1.34e+01   -1.46e+01    1.89e-01   -1.89e-01
Req:     5.00e-04    1.00e-11    1.00e-11    1.00e-12    1.00e-12
CAP:     0.00e+00    0.00e+00    0.00e+00    0.00e+00    0.00e+00

Name:     d406        d403        d407        d408        d405
Model:      d           d        1n4148      1n4148      1n4148
Id:     -1.50e-11   -1.50e-11   -2.53e-09   -2.53e-09   -2.54e-09
Vd:     -1.50e+01   -1.50e+01   -1.06e+01   -1.06e+01   -1.58e+01
Req:     1.00e+12    1.00e+12    1.00e+12    1.00e+12    1.00e+12
CAP:     0.00e+00    0.00e+00    1.50e-12    1.50e-12    1.29e-12

Name:     d404        d402        d401
Model:   1n4148      1n4148      1n4148
Id:     -2.53e-09    3.92e-05    1.50e-04
Vd:     -1.42e+01    4.37e-01    4.98e-01
Req:     1.00e+12    1.16e+03    3.02e+02
CAP:     1.35e-12    2.23e-11    7.16e-11

                        --- VDMOSFET Transistors ---
Name:       m:u403b:2   m:u403b:1   m:u403a:2   m:u403a:1    m:u8:2
Model:       u403b:p     u403b:n     u403a:p     u403a:n      u8:p
Id:         -3.78e-05    7.46e-04   -1.99e-12    4.33e-04   -2.72e-04
Vgs:         2.83e-01    2.83e-01    3.16e+00    3.16e+00   -3.75e-02
Vds:        -2.55e+01    4.26e+00   -1.98e+00    2.55e-02   -1.37e+01
Vth:         2.50e-01   -2.50e-01    2.50e-01   -2.50e-01    2.50e-01
Gm:          2.82e-04    2.55e-03    2.38e-16    1.28e-04    1.33e-03
Gds:         0.00e+00    0.00e+00    0.00e+00    1.69e-02    0.00e+00
Cgs:         0.00e+00    0.00e+00    0.00e+00    0.00e+00    0.00e+00
Cgd:         0.00e+00    0.00e+00    0.00e+00    0.00e+00    0.00e+00
Cbody:       0.00e+00    0.00e+00    0.00e+00    0.00e+00    0.00e+00

Name:        m:u8:1      m:u7:2      m:u7:1      m:u6:2      m:u6:1
Model:        u8:n        u7:p        u7:n        u6:p        u6:n
Id:          1.85e-04   -1.88e-04    2.69e-04   -9.29e-05    4.59e-04
Vgs:        -3.75e-02    3.46e-02    3.46e-02    1.53e-01    1.53e-01
Vds:         1.63e+01   -1.45e+01    1.35e+01   -1.58e+01    1.42e+01
Vth:        -2.50e-01    2.50e-01   -2.50e-01    2.50e-01   -2.50e-01
Gm:          1.01e-03    1.02e-03    1.32e-03    5.96e-04    1.89e-03
Gds:         0.00e+00    0.00e+00    0.00e+00    0.00e+00    0.00e+00
Cgs:         0.00e+00    0.00e+00    0.00e+00    0.00e+00    0.00e+00
Cgd:         0.00e+00    0.00e+00    0.00e+00    0.00e+00    0.00e+00
Cbody:       0.00e+00    0.00e+00    0.00e+00    0.00e+00    0.00e+00

Name:        m:u5:2      m:u5:1
Model:        u5:p        u5:n
Id:         -5.29e-04    7.35e-05
Vgs:        -1.89e-01   -1.89e-01
Vds:        -1.36e+01    1.44e+01
Vth:         2.50e-01   -2.50e-01
Gm:          2.07e-03    4.94e-04
Gds:         0.00e+00    0.00e+00
Cgs:         0.00e+00    0.00e+00
Cgd:         0.00e+00    0.00e+00
Cbody:       0.00e+00    0.00e+00



Date: Sun May 29 06:29:38 2022
Total elapsed time: 1.130 seconds.

tnom = 27
temp = 27
method = trap
totiter = 13500
traniter = 0
tranpoints = 0
accept = 0
rejected = 0
matrix size = 59
fillins = 102
solver = Normal
Thread vector: 26.6/15.3[5] 0.0/0.0[0] 6.5/4.9[5] 0.6/1.6[1]  2592/500
Matrix Compiler1: 13.06 KB object code size
Matrix Compiler2: 7.85 KB object code size  1.7/1.6/[0.7]

